 ****** PrimeSim HSPICE -- V-2023.12-SP2 linux64 (May 28 2024 8970365) ******
  Copyright (c) 1986 - 2025 by Synopsys, Inc. All Rights Reserved.
  This software and the associated documentation are proprietary
  to Synopsys, Inc. This software may only be used in accordance
  with the terms and conditions of a written license agreement with
  Synopsys, Inc. All other use, reproduction, or distribution of
  this software is strictly prohibited.
  Input File: test-00-fecap.sp                                                  
  Command line options: /home/user_r/synopsys/hspice/V-2023.12-SP2/hspice/linux64/hspice test-00-fecap.sp -o output
  Start time: Sun Aug 10 22:24:43 2025
 lic:  
 lic: FLEXlm: SDK_12.11.9.5 
 lic: USER:   user_r               HOSTNAME: mario 
 lic: HOSTID: ffffffff91736e9d     PID:      12693 
 lic: Using FLEXlm license file: 
 lic: 27020@115.145.157.110 
 lic: Checkout 1 hspice 
 lic: License/Maintenance for hspice will expire on 24-mar-2026/2024.09 
 lic: 2(in_use)/5(total) FLOATING license(s) on SERVER 27020@115.145.157.110 
 lic:   
 **info** *pvaI* current limit stacksize=8388608, set new limit stacksize=62914560

 Loading pVA library output/test-00-fecap.pvadir/pvaRTL_linux64.so...
1****** PrimeSim HSPICE -- V-2023.12-SP2 linux64 (May 28 2024 8970365) ******
 ******  
 * ferro-vmm-test

 ****** circuit name directory
 circuit number to circuit name directory
   number circuitname                     definition         multiplier
        0 main circuit
        1 xc1.                            fecap_jh(va)       1.00 
  **info** (test-00-fecap.sp:39) DC voltage reset to initial transient source value in source 0:vsine. new dc=0.0000D+00
 **info** *pvaI* Creating VA module (fecap_jh) for instance XC1

 **info** *pvaI*        termCount=7 diwSize=46 probeSize=6082 Qsize=5 Isize=7

  
      
 *****************************************************************
 ******  option summary
 ******
 runlvl  = 3         bypass  = 2.0000000  
 Begin of pVA simulation on Sun Aug 10 22:24:43 2025	


 **info** dc convergence successful at Newton-Raphson method 
 ******  
 * ferro-vmm-test

 ****** operating point information tnom=  25.000 temp=  25.000 ******
 ****** operating point status is all       simulation time is   0.000000e+00
    node    =voltage

 +0:wl      = 0.000000e+00


 **** voltage sources

 subckt                
 element     0:vsine   
  volts    0.000000e+00
  current  0.000000e+00
  power    0.000000e+00

     total voltage source power dissipation=  0.000000e+00    watts


 2.51

 **info** *pvaI* minimum timestep = 1e-18

 2.51

 **info** *pvaI* minimum timestep = 1e-16

 2.51

 2.51

 2.51

 2.51

 2.51

 2.51

 2.51

 2.51

 2.51

 2.51

 2.51

 2.51

 2.51

 2.51

 2.51

 2.51

 2.51

 2.51

 2.51

 2.51

 2.51

 2.51

 2.51

 2.51

 2.51

 2.51

 2.51

 2.51

 2.51

 2.51

 2.51

 2.51

 2.51

 2.51

 2.51

 2.51

 2.51

 2.51

 2.51

 2.51

 2.51

 2.51

 2.51

 2.51

 2.51

 2.51

 2.51

 2.51

  **warning** too many 50 repeated identical pVA messages given, further will be suppressed in the log file
 ******
 * ferro-vmm-test

 ****** transient analysis tnom=  25.000 temp=  25.000 ******
x

 time            current       voltage       voltage      
                vsine         0             wl            
  0.0000000e+00  0.000000e+00  0.000000e+00  0.000000e+00 
  1.0000000e-09  3.492833e-19  0.000000e+00  9.424762e-03 
  2.0000000e-09  7.012107e-19  0.000000e+00  1.884943e-02 
  3.0000000e-09  1.055873e-18  0.000000e+00  2.827392e-02 
  4.0000000e-09  1.413363e-18  0.000000e+00  3.769812e-02 
  5.0000000e-09  1.773777e-18  0.000000e+00  4.712195e-02 
  6.0000000e-09  2.137216e-18  0.000000e+00  5.654532e-02 
  7.0000000e-09  2.503781e-18  0.000000e+00  6.596813e-02 
  8.0000000e-09  2.873578e-18  0.000000e+00  7.539029e-02 
  9.0000000e-09  3.246716e-18  0.000000e+00  8.481170e-02 
  1.0000000e-08  3.623308e-18  0.000000e+00  9.423228e-02 
  1.1000000e-08  4.003468e-18  0.000000e+00  1.036519e-01 
  1.2000000e-08  4.387317e-18  0.000000e+00  1.130705e-01 
  1.3000000e-08  4.774976e-18  0.000000e+00  1.224881e-01 
  1.4000000e-08  5.166571e-18  0.000000e+00  1.319044e-01 
  1.5000000e-08  5.562233e-18  0.000000e+00  1.413194e-01 
  1.6000000e-08  5.962094e-18  0.000000e+00  1.507330e-01 
  1.7000000e-08  6.366290e-18  0.000000e+00  1.601451e-01 
  1.8000000e-08  6.774963e-18  0.000000e+00  1.695556e-01 
  1.9000000e-08  7.188257e-18  0.000000e+00  1.789645e-01 
  2.0000000e-08  7.606319e-18  0.000000e+00  1.883716e-01 
  2.1000000e-08  8.029301e-18  0.000000e+00  1.977768e-01 
  2.2000000e-08  8.457358e-18  0.000000e+00  2.071801e-01 
  2.3000000e-08  8.890649e-18  0.000000e+00  2.165813e-01 
  2.4000000e-08  9.329338e-18  0.000000e+00  2.259804e-01 
  2.5000000e-08  9.773590e-18  0.000000e+00  2.353773e-01 
  2.6000000e-08  1.022358e-17  0.000000e+00  2.447718e-01 
  2.7000000e-08  1.067947e-17  0.000000e+00  2.541640e-01 
  2.8000000e-08  1.114145e-17  0.000000e+00  2.635536e-01 
  2.9000000e-08  1.160969e-17  0.000000e+00  2.729406e-01 
  3.0000000e-08  1.208439e-17  0.000000e+00  2.823249e-01 
  3.1000000e-08  1.256573e-17  0.000000e+00  2.917065e-01 
  3.2000000e-08  1.305389e-17  0.000000e+00  3.010851e-01 
  3.3000000e-08  1.354908e-17  0.000000e+00  3.104608e-01 
  3.4000000e-08  1.405149e-17  0.000000e+00  3.198335e-01 
  3.5000000e-08  1.456133e-17  0.000000e+00  3.292029e-01 
  3.6000000e-08  1.507879e-17  0.000000e+00  3.385691e-01 
  3.7000000e-08  1.560408e-17  0.000000e+00  3.479320e-01 
  3.8000000e-08  1.613742e-17  0.000000e+00  3.572915e-01 
  3.9000000e-08  1.667900e-17  0.000000e+00  3.666474e-01 
  4.0000000e-08  1.722905e-17  0.000000e+00  3.759997e-01 
  4.1000000e-08  1.778777e-17  0.000000e+00  3.853483e-01 
  4.2000000e-08  1.835539e-17  0.000000e+00  3.946931e-01 
  4.3000000e-08  1.893212e-17  0.000000e+00  4.040340e-01 
  4.4000000e-08  1.951817e-17  0.000000e+00  4.133709e-01 
  4.5000000e-08  2.011376e-17  0.000000e+00  4.227037e-01 
  4.6000000e-08  2.071912e-17  0.000000e+00  4.320323e-01 
  4.7000000e-08  2.133446e-17  0.000000e+00  4.413567e-01 
  4.8000000e-08  2.195999e-17  0.000000e+00  4.506767e-01 
  4.9000000e-08  2.259594e-17  0.000000e+00  4.599923e-01 
  5.0000000e-08  2.324251e-17  0.000000e+00  4.693034e-01 
  5.1000000e-08  2.389991e-17  0.000000e+00  4.786098e-01 
  5.2000000e-08  2.456836e-17  0.000000e+00  4.879115e-01 
  5.3000000e-08  2.524805e-17  0.000000e+00  4.972083e-01 
  5.4000000e-08  2.593920e-17  0.000000e+00  5.065003e-01 
  5.5000000e-08  2.664199e-17  0.000000e+00  5.157873e-01 
  5.6000000e-08  2.735662e-17  0.000000e+00  5.250691e-01 
  5.7000000e-08  2.808327e-17  0.000000e+00  5.343458e-01 
  5.8000000e-08  2.882212e-17  0.000000e+00  5.436173e-01 
  5.9000000e-08  2.957335e-17  0.000000e+00  5.528833e-01 
  6.0000000e-08  3.033710e-17  0.000000e+00  5.621439e-01 
  6.1000000e-08  3.111355e-17  0.000000e+00  5.713990e-01 
  6.2000000e-08  3.190283e-17  0.000000e+00  5.806484e-01 
  6.3000000e-08  3.270508e-17  0.000000e+00  5.898920e-01 
  6.4000000e-08  3.352042e-17  0.000000e+00  5.991299e-01 
  6.5000000e-08  3.434895e-17  0.000000e+00  6.083618e-01 
  6.6000000e-08  3.519079e-17  0.000000e+00  6.175878e-01 
  6.7000000e-08  3.604601e-17  0.000000e+00  6.268076e-01 
  6.8000000e-08  3.691469e-17  0.000000e+00  6.360213e-01 
  6.9000000e-08  3.779687e-17  0.000000e+00  6.452287e-01 
  7.0000000e-08  3.869260e-17  0.000000e+00  6.544297e-01 
  7.1000000e-08  3.960190e-17  0.000000e+00  6.636242e-01 
  7.2000000e-08  4.052477e-17  0.000000e+00  6.728122e-01 
  7.3000000e-08  4.146120e-17  0.000000e+00  6.819936e-01 
  7.4000000e-08  4.241116e-17  0.000000e+00  6.911682e-01 
  7.5000000e-08  4.337458e-17  0.000000e+00  7.003360e-01 
  7.6000000e-08  4.435140e-17  0.000000e+00  7.094969e-01 
  7.7000000e-08  4.534153e-17  0.000000e+00  7.186508e-01 
  7.8000000e-08  4.634484e-17  0.000000e+00  7.277976e-01 
  7.9000000e-08  4.736121e-17  0.000000e+00  7.369373e-01 
  8.0000000e-08  4.839046e-17  0.000000e+00  7.460696e-01 
  8.1000000e-08  4.943241e-17  0.000000e+00  7.551946e-01 
  8.2000000e-08  5.048686e-17  0.000000e+00  7.643121e-01 
  8.3000000e-08  5.155358e-17  0.000000e+00  7.734221e-01 
  8.4000000e-08  5.263230e-17  0.000000e+00  7.825245e-01 
  8.5000000e-08  5.372277e-17  0.000000e+00  7.916191e-01 
  8.6000000e-08  5.482467e-17  0.000000e+00  8.007059e-01 
  8.7000000e-08  5.593768e-17  0.000000e+00  8.097848e-01 
  8.8000000e-08  5.706145e-17  0.000000e+00  8.188557e-01 
  8.9000000e-08  5.819561e-17  0.000000e+00  8.279186e-01 
  9.0000000e-08  5.933976e-17  0.000000e+00  8.369732e-01 
  9.1000000e-08  6.049350e-17  0.000000e+00  8.460197e-01 
  9.2000000e-08  6.165639e-17  0.000000e+00  8.550577e-01 
  9.3000000e-08  6.282796e-17  0.000000e+00  8.640873e-01 
  9.4000000e-08  6.400774e-17  0.000000e+00  8.731084e-01 
  9.5000000e-08  6.519523e-17  0.000000e+00  8.821209e-01 
  9.6000000e-08  6.638992e-17  0.000000e+00  8.911247e-01 
  9.7000000e-08  6.759127e-17  0.000000e+00  9.001196e-01 
  9.8000000e-08  6.879874e-17  0.000000e+00  9.091057e-01 
  9.9000000e-08  7.001177e-17  0.000000e+00  9.180828e-01 
  1.0000000e-07  7.122977e-17  0.000000e+00  9.270509e-01 
  1.0100000e-07  7.245216e-17  0.000000e+00  9.360098e-01 
  1.0200000e-07  7.367834e-17  0.000000e+00  9.449595e-01 
  1.0300000e-07  7.490770e-17  0.000000e+00  9.538998e-01 
  1.0400000e-07  7.613963e-17  0.000000e+00  9.628307e-01 
  1.0500000e-07  7.737351e-17  0.000000e+00  9.717522e-01 
  1.0600000e-07  7.860870e-17  0.000000e+00  9.806640e-01 
  1.0700000e-07  7.984458e-17  0.000000e+00  9.895661e-01 
  1.0800000e-07  8.108052e-17  0.000000e+00  9.984585e-01 
  1.0900000e-07  8.231589e-17  0.000000e+00  1.007341e+00 
  1.1000000e-07  8.355006e-17  0.000000e+00  1.016214e+00 
  1.1100000e-07  8.478240e-17  0.000000e+00  1.025076e+00 
  1.1200000e-07  8.601231e-17  0.000000e+00  1.033929e+00 
  1.1300000e-07  8.723916e-17  0.000000e+00  1.042771e+00 
  1.1400000e-07  8.846235e-17  0.000000e+00  1.051603e+00 
  1.1500000e-07  8.968129e-17  0.000000e+00  1.060424e+00 
  1.1600000e-07  9.089540e-17  0.000000e+00  1.069236e+00 
  1.1700000e-07  9.210410e-17  0.000000e+00  1.078036e+00 
  1.1800000e-07  9.330684e-17  0.000000e+00  1.086826e+00 
  1.1900000e-07  9.450308e-17  0.000000e+00  1.095605e+00 
  1.2000000e-07  9.569229e-17  0.000000e+00  1.104374e+00 
  1.2100000e-07  9.687396e-17  0.000000e+00  1.113131e+00 
  1.2200000e-07  9.804761e-17  0.000000e+00  1.121877e+00 
  1.2300000e-07  9.921276e-17  0.000000e+00  1.130613e+00 
  1.2400000e-07  1.003690e-16  0.000000e+00  1.139337e+00 
  1.2500000e-07  1.015158e-16  0.000000e+00  1.148050e+00 
  1.2600000e-07  1.026528e-16  0.000000e+00  1.156752e+00 
  1.2700000e-07  1.037797e-16  0.000000e+00  1.165442e+00 
  1.2800000e-07  1.048960e-16  0.000000e+00  1.174121e+00 
  1.2900000e-07  1.060014e-16  0.000000e+00  1.182788e+00 
  1.3000000e-07  1.070956e-16  0.000000e+00  1.191444e+00 
  1.3100000e-07  1.081784e-16  0.000000e+00  1.200087e+00 
  1.3200000e-07  1.092493e-16  0.000000e+00  1.208719e+00 
  1.3300000e-07  1.103082e-16  0.000000e+00  1.217339e+00 
  1.3400000e-07  1.113548e-16  0.000000e+00  1.225947e+00 
  1.3500000e-07  1.123889e-16  0.000000e+00  1.234543e+00 
  1.3600000e-07  1.134104e-16  0.000000e+00  1.243127e+00 
  1.3700000e-07  1.144191e-16  0.000000e+00  1.251698e+00 
  1.3800000e-07  1.154147e-16  0.000000e+00  1.260257e+00 
  1.3900000e-07  1.163973e-16  0.000000e+00  1.268804e+00 
  1.4000000e-07  1.173667e-16  0.000000e+00  1.277338e+00 
  1.4100000e-07  1.183227e-16  0.000000e+00  1.285859e+00 
  1.4200000e-07  1.192655e-16  0.000000e+00  1.294368e+00 
  1.4300000e-07  1.201948e-16  0.000000e+00  1.302864e+00 
  1.4400000e-07  1.211107e-16  0.000000e+00  1.311347e+00 
  1.4500000e-07  1.220132e-16  0.000000e+00  1.319817e+00 
  1.4600000e-07  1.229022e-16  0.000000e+00  1.328274e+00 
  1.4700000e-07  1.237778e-16  0.000000e+00  1.336719e+00 
  1.4800000e-07  1.246401e-16  0.000000e+00  1.345149e+00 
  1.4900000e-07  1.254890e-16  0.000000e+00  1.353567e+00 
  1.5000000e-07  1.263247e-16  0.000000e+00  1.361971e+00 
  1.5100000e-07  1.271472e-16  0.000000e+00  1.370362e+00 
  1.5200000e-07  1.279566e-16  0.000000e+00  1.378739e+00 
  1.5300000e-07  1.287530e-16  0.000000e+00  1.387103e+00 
  1.5400000e-07  1.295365e-16  0.000000e+00  1.395453e+00 
  1.5500000e-07  1.303072e-16  0.000000e+00  1.403789e+00 
  1.5600000e-07  1.310654e-16  0.000000e+00  1.412112e+00 
  1.5700000e-07  1.318110e-16  0.000000e+00  1.420420e+00 
  1.5800000e-07  1.325443e-16  0.000000e+00  1.428714e+00 
  1.5900000e-07  1.332654e-16  0.000000e+00  1.436995e+00 
  1.6000000e-07  1.339745e-16  0.000000e+00  1.445261e+00 
  1.6100000e-07  1.346717e-16  0.000000e+00  1.453513e+00 
  1.6200000e-07  1.353572e-16  0.000000e+00  1.461750e+00 
  1.6300000e-07  1.360311e-16  0.000000e+00  1.469973e+00 
  1.6400000e-07  1.366937e-16  0.000000e+00  1.478182e+00 
  1.6500000e-07  1.373452e-16  0.000000e+00  1.486376e+00 
  1.6600000e-07  1.379857e-16  0.000000e+00  1.494555e+00 
  1.6700000e-07  1.386154e-16  0.000000e+00  1.502720e+00 
  1.6800000e-07  1.392345e-16  0.000000e+00  1.510869e+00 
  1.6900000e-07  1.398432e-16  0.000000e+00  1.519004e+00 
  1.7000000e-07  1.404416e-16  0.000000e+00  1.527124e+00 
  1.7100000e-07  1.410301e-16  0.000000e+00  1.535229e+00 
  1.7200000e-07  1.416087e-16  0.000000e+00  1.543318e+00 
  1.7300000e-07  1.421777e-16  0.000000e+00  1.551393e+00 
  1.7400000e-07  1.427373e-16  0.000000e+00  1.559452e+00 
  1.7500000e-07  1.432876e-16  0.000000e+00  1.567495e+00 
  1.7600000e-07  1.438288e-16  0.000000e+00  1.575524e+00 
  1.7700000e-07  1.443612e-16  0.000000e+00  1.583536e+00 
  1.7800000e-07  1.448850e-16  0.000000e+00  1.591533e+00 
  1.7900000e-07  1.454002e-16  0.000000e+00  1.599515e+00 
  1.8000000e-07  1.459072e-16  0.000000e+00  1.607480e+00 
  1.8100000e-07  1.464060e-16  0.000000e+00  1.615430e+00 
  1.8200000e-07  1.468969e-16  0.000000e+00  1.623363e+00 
  1.8300000e-07  1.473801e-16  0.000000e+00  1.631281e+00 
  1.8400000e-07  1.478557e-16  0.000000e+00  1.639183e+00 
  1.8500000e-07  1.483239e-16  0.000000e+00  1.647068e+00 
  1.8600000e-07  1.487848e-16  0.000000e+00  1.654937e+00 
  1.8700000e-07  1.492388e-16  0.000000e+00  1.662790e+00 
  1.8800000e-07  1.496858e-16  0.000000e+00  1.670627e+00 
  1.8900000e-07  1.501262e-16  0.000000e+00  1.678446e+00 
  1.9000000e-07  1.505599e-16  0.000000e+00  1.686250e+00 
  1.9100000e-07  1.509873e-16  0.000000e+00  1.694037e+00 
  1.9200000e-07  1.514085e-16  0.000000e+00  1.701807e+00 
  1.9300000e-07  1.518235e-16  0.000000e+00  1.709560e+00 
  1.9400000e-07  1.522326e-16  0.000000e+00  1.717296e+00 
  1.9500000e-07  1.526360e-16  0.000000e+00  1.725015e+00 
  1.9600000e-07  1.530336e-16  0.000000e+00  1.732718e+00 
  1.9700000e-07  1.534258e-16  0.000000e+00  1.740403e+00 
  1.9800000e-07  1.538126e-16  0.000000e+00  1.748071e+00 
  1.9900000e-07  1.541941e-16  0.000000e+00  1.755722e+00 
  2.0000000e-07  1.545706e-16  0.000000e+00  1.763355e+00 
  2.0100000e-07  1.549421e-16  0.000000e+00  1.770971e+00 
  2.0200000e-07  1.553087e-16  0.000000e+00  1.778570e+00 
  2.0300000e-07  1.556706e-16  0.000000e+00  1.786151e+00 
  2.0400000e-07  1.560278e-16  0.000000e+00  1.793715e+00 
  2.0500000e-07  1.563806e-16  0.000000e+00  1.801260e+00 
  2.0600000e-07  1.567290e-16  0.000000e+00  1.808788e+00 
  2.0700000e-07  1.570731e-16  0.000000e+00  1.816298e+00 
  2.0800000e-07  1.574130e-16  0.000000e+00  1.823791e+00 
  2.0900000e-07  1.577489e-16  0.000000e+00  1.831265e+00 
  2.1000000e-07  1.580808e-16  0.000000e+00  1.838721e+00 
  2.1100000e-07  1.584089e-16  0.000000e+00  1.846159e+00 
  2.1200000e-07  1.587332e-16  0.000000e+00  1.853578e+00 
  2.1300000e-07  1.590538e-16  0.000000e+00  1.860980e+00 
  2.1400000e-07  1.593708e-16  0.000000e+00  1.868363e+00 
  2.1500000e-07  1.596843e-16  0.000000e+00  1.875728e+00 
  2.1600000e-07  1.599944e-16  0.000000e+00  1.883074e+00 
  2.1700000e-07  1.603012e-16  0.000000e+00  1.890401e+00 
  2.1800000e-07  1.606047e-16  0.000000e+00  1.897710e+00 
  2.1900000e-07  1.609051e-16  0.000000e+00  1.905000e+00 
  2.2000000e-07  1.612024e-16  0.000000e+00  1.912272e+00 
  2.2100000e-07  1.614966e-16  0.000000e+00  1.919524e+00 
  2.2200000e-07  1.617879e-16  0.000000e+00  1.926758e+00 
  2.2300000e-07  1.620764e-16  0.000000e+00  1.933972e+00 
  2.2400000e-07  1.623620e-16  0.000000e+00  1.941167e+00 
  2.2500000e-07  1.626449e-16  0.000000e+00  1.948344e+00 
  2.2600000e-07  1.629251e-16  0.000000e+00  1.955501e+00 
  2.2700000e-07  1.632027e-16  0.000000e+00  1.962638e+00 
  2.2800000e-07  1.634777e-16  0.000000e+00  1.969757e+00 
  2.2900000e-07  1.637502e-16  0.000000e+00  1.976856e+00 
  2.3000000e-07  1.640203e-16  0.000000e+00  1.983935e+00 
  2.3100000e-07  1.642880e-16  0.000000e+00  1.990995e+00 
  2.3200000e-07  1.645534e-16  0.000000e+00  1.998035e+00 
  2.3300000e-07  1.648164e-16  0.000000e+00  2.005056e+00 
  2.3400000e-07  1.650773e-16  0.000000e+00  2.012056e+00 
  2.3500000e-07  1.653359e-16  0.000000e+00  2.019037e+00 
  2.3600000e-07  1.655925e-16  0.000000e+00  2.025998e+00 
  2.3700000e-07  1.658469e-16  0.000000e+00  2.032939e+00 
  2.3800000e-07  1.660992e-16  0.000000e+00  2.039860e+00 
  2.3900000e-07  1.663496e-16  0.000000e+00  2.046760e+00 
  2.4000000e-07  1.665980e-16  0.000000e+00  2.053641e+00 
  2.4100000e-07  1.668445e-16  0.000000e+00  2.060501e+00 
  2.4200000e-07  1.670890e-16  0.000000e+00  2.067341e+00 
  2.4300000e-07  1.673318e-16  0.000000e+00  2.074160e+00 
  2.4400000e-07  1.675727e-16  0.000000e+00  2.080959e+00 
  2.4500000e-07  1.678118e-16  0.000000e+00  2.087738e+00 
  2.4600000e-07  1.680492e-16  0.000000e+00  2.094496e+00 
  2.4700000e-07  1.682848e-16  0.000000e+00  2.101233e+00 
  2.4800000e-07  1.685188e-16  0.000000e+00  2.107949e+00 
  2.4900000e-07  1.687512e-16  0.000000e+00  2.114645e+00 
  2.5000000e-07  1.689819e-16  0.000000e+00  2.121320e+00 
  2.5100000e-07  1.692110e-16  0.000000e+00  2.127974e+00 
  2.5200000e-07  1.694385e-16  0.000000e+00  2.134606e+00 
  2.5300000e-07  1.696645e-16  0.000000e+00  2.141218e+00 
  2.5400000e-07  1.698890e-16  0.000000e+00  2.147809e+00 
  2.5500000e-07  1.701120e-16  0.000000e+00  2.154378e+00 
  2.5600000e-07  1.703335e-16  0.000000e+00  2.160927e+00 
  2.5700000e-07  1.705536e-16  0.000000e+00  2.167453e+00 
  2.5800000e-07  1.707723e-16  0.000000e+00  2.173959e+00 
  2.5900000e-07  1.709896e-16  0.000000e+00  2.180443e+00 
  2.6000000e-07  1.712055e-16  0.000000e+00  2.186905e+00 
  2.6100000e-07  1.714200e-16  0.000000e+00  2.193346e+00 
  2.6200000e-07  1.716332e-16  0.000000e+00  2.199765e+00 
  2.6300000e-07  1.718451e-16  0.000000e+00  2.206163e+00 
  2.6400000e-07  1.720557e-16  0.000000e+00  2.212539e+00 
  2.6500000e-07  1.722650e-16  0.000000e+00  2.218893e+00 
  2.6600000e-07  1.724731e-16  0.000000e+00  2.225225e+00 
  2.6700000e-07  1.726799e-16  0.000000e+00  2.231535e+00 
  2.6800000e-07  1.728854e-16  0.000000e+00  2.237823e+00 
  2.6900000e-07  1.730898e-16  0.000000e+00  2.244089e+00 
  2.7000000e-07  1.732929e-16  0.000000e+00  2.250333e+00 
  2.7100000e-07  1.734949e-16  0.000000e+00  2.256554e+00 
  2.7200000e-07  1.736957e-16  0.000000e+00  2.262754e+00 
  2.7300000e-07  1.738953e-16  0.000000e+00  2.268931e+00 
  2.7400000e-07  1.740938e-16  0.000000e+00  2.275085e+00 
  2.7500000e-07  1.742912e-16  0.000000e+00  2.281217e+00 
  2.7600000e-07  1.744874e-16  0.000000e+00  2.287327e+00 
  2.7700000e-07  1.746826e-16  0.000000e+00  2.293414e+00 
  2.7800000e-07  1.748766e-16  0.000000e+00  2.299478e+00 
  2.7900000e-07  1.750695e-16  0.000000e+00  2.305520e+00 
  2.8000000e-07  1.752614e-16  0.000000e+00  2.311539e+00 
  2.8100000e-07  1.754522e-16  0.000000e+00  2.317535e+00 
  2.8200000e-07  1.756419e-16  0.000000e+00  2.323509e+00 
