 ****** PrimeSim HSPICE -- V-2023.12-SP2 linux64 (May 28 2024 8970365) ******
  Copyright (c) 1986 - 2025 by Synopsys, Inc. All Rights Reserved.
  This software and the associated documentation are proprietary
  to Synopsys, Inc. This software may only be used in accordance
  with the terms and conditions of a written license agreement with
  Synopsys, Inc. All other use, reproduction, or distribution of
  this software is strictly prohibited.
  Input File: test-00-fecap.sp                                                  
  Command line options: /home/user_r/synopsys/hspice/V-2023.12-SP2/hspice/linux64/hspice test-00-fecap.sp -o output
  Start time: Thu Aug  7 14:05:31 2025
 lic:  
 lic: FLEXlm: SDK_12.11.9.5 
 lic: USER:   user_r               HOSTNAME: mario 
 lic: HOSTID: ffffffff91736e9d     PID:      6556 
 lic: Using FLEXlm license file: 
 lic: 27020@115.145.157.110 
 lic: Checkout 1 hspice 
 lic: License/Maintenance for hspice will expire on 24-mar-2026/2024.09 
 lic: 1(in_use)/5(total) FLOATING license(s) on SERVER 27020@115.145.157.110 
 lic:   
 **info** *pvaI* current limit stacksize=8388608, set new limit stacksize=62914560

 Loading pVA library output/test-00-fecap.pvadir/pvaRTL_linux64.so...
1****** PrimeSim HSPICE -- V-2023.12-SP2 linux64 (May 28 2024 8970365) ******
 ******  
 * ferro-vmm-test

 ****** circuit name directory
 circuit number to circuit name directory
   number circuitname                     definition         multiplier
        0 main circuit
        1 xc1.                            fecap_jh(va)       1.00 
  **info** (test-00-fecap.sp:39) DC voltage reset to initial transient source value in source 0:vsine. new dc=0.0000D+00
 **info** *pvaI* Creating VA module (fecap_jh) for instance XC1

 **info** *pvaI*        termCount=7 diwSize=46 probeSize=6082 Qsize=5 Isize=7

  
      
 *****************************************************************
 ******  option summary
 ******
 runlvl  = 3         bypass  = 2.0000000  
 Begin of pVA simulation on Thu Aug  7 14:05:31 2025	


 **info** dc convergence successful at Newton-Raphson method 
 ******  
 * ferro-vmm-test

 ****** operating point information tnom=  25.000 temp=  25.000 ******
 ****** operating point status is all       simulation time is   0.000000e+00
    node    =voltage

 +0:wl      = 0.000000e+00


 **** voltage sources

 subckt                
 element     0:vsine   
  volts    0.000000e+00
  current  0.000000e+00
  power    0.000000e+00

     total voltage source power dissipation=  0.000000e+00    watts


 2.51

 **info** *pvaI* minimum timestep = 1e-18

 2.51

 **info** *pvaI* minimum timestep = 1e-16

 2.51

 2.51

 2.51

 2.51

 2.51

 2.51

 2.51

 2.51

 2.51

 2.51

 2.51

 2.51

 2.51

 2.51

 2.51

 2.51

 2.51

 2.51

 2.51

 2.51

 2.51

 2.51

 2.51

 2.51

 2.51

 2.51

 2.51

 2.51

 2.51

 2.51

 2.51

 2.51

 2.51

 2.51

 2.51

 2.51

 2.51

 2.51

 2.51

 2.51

 2.51

 2.51

 2.51

 2.51

 2.51

 2.51

 2.51

 2.51

  **warning** too many 50 repeated identical pVA messages given, further will be suppressed in the log file
 ******
 * ferro-vmm-test

 ****** transient analysis tnom=  25.000 temp=  25.000 ******
x

 time            current       voltage       voltage      
                vsine         0             wl            
  0.0000000e+00  0.000000e+00  0.000000e+00  0.000000e+00 
  1.0000000e-09  2.641643e-19  0.000000e+00  6.283175e-03 
  2.0000000e-09  5.302643e-19  0.000000e+00  1.256629e-02 
  3.0000000e-09  7.983430e-19  0.000000e+00  1.884928e-02 
  4.0000000e-09  1.068444e-18  0.000000e+00  2.513208e-02 
  5.0000000e-09  1.340613e-18  0.000000e+00  3.141463e-02 
  6.0000000e-09  1.614896e-18  0.000000e+00  3.769688e-02 
  7.0000000e-09  1.891338e-18  0.000000e+00  4.397875e-02 
  8.0000000e-09  2.169987e-18  0.000000e+00  5.026019e-02 
  9.0000000e-09  2.450893e-18  0.000000e+00  5.654113e-02 
  1.0000000e-08  2.734104e-18  0.000000e+00  6.282152e-02 
  1.1000000e-08  3.019671e-18  0.000000e+00  6.910128e-02 
  1.2000000e-08  3.307647e-18  0.000000e+00  7.538036e-02 
  1.3000000e-08  3.598082e-18  0.000000e+00  8.165870e-02 
  1.4000000e-08  3.891031e-18  0.000000e+00  8.793624e-02 
  1.5000000e-08  4.186548e-18  0.000000e+00  9.421290e-02 
  1.6000000e-08  4.484689e-18  0.000000e+00  1.004886e-01 
  1.7000000e-08  4.785511e-18  0.000000e+00  1.067634e-01 
  1.8000000e-08  5.089070e-18  0.000000e+00  1.130371e-01 
  1.9000000e-08  5.395426e-18  0.000000e+00  1.193096e-01 
  2.0000000e-08  5.704639e-18  0.000000e+00  1.255810e-01 
  2.1000000e-08  6.016768e-18  0.000000e+00  1.318512e-01 
  2.2000000e-08  6.331877e-18  0.000000e+00  1.381200e-01 
  2.3000000e-08  6.650027e-18  0.000000e+00  1.443875e-01 
  2.4000000e-08  6.971284e-18  0.000000e+00  1.506536e-01 
  2.5000000e-08  7.295711e-18  0.000000e+00  1.569182e-01 
  2.6000000e-08  7.623376e-18  0.000000e+00  1.631812e-01 
  2.7000000e-08  7.954344e-18  0.000000e+00  1.694426e-01 
  2.8000000e-08  8.288685e-18  0.000000e+00  1.757024e-01 
  2.9000000e-08  8.626468e-18  0.000000e+00  1.819604e-01 
  3.0000000e-08  8.967764e-18  0.000000e+00  1.882166e-01 
  3.1000000e-08  9.312642e-18  0.000000e+00  1.944710e-01 
  3.2000000e-08  9.661178e-18  0.000000e+00  2.007234e-01 
  3.3000000e-08  1.001344e-17  0.000000e+00  2.069739e-01 
  3.4000000e-08  1.036951e-17  0.000000e+00  2.132223e-01 
  3.5000000e-08  1.072946e-17  0.000000e+00  2.194686e-01 
  3.6000000e-08  1.109337e-17  0.000000e+00  2.257128e-01 
  3.7000000e-08  1.146131e-17  0.000000e+00  2.319547e-01 
  3.8000000e-08  1.183336e-17  0.000000e+00  2.381943e-01 
  3.9000000e-08  1.220961e-17  0.000000e+00  2.444316e-01 
  4.0000000e-08  1.259013e-17  0.000000e+00  2.506665e-01 
  4.1000000e-08  1.297501e-17  0.000000e+00  2.568988e-01 
  4.2000000e-08  1.336432e-17  0.000000e+00  2.631287e-01 
  4.3000000e-08  1.375816e-17  0.000000e+00  2.693560e-01 
  4.4000000e-08  1.415660e-17  0.000000e+00  2.755806e-01 
  4.5000000e-08  1.455974e-17  0.000000e+00  2.818025e-01 
  4.6000000e-08  1.496765e-17  0.000000e+00  2.880216e-01 
  4.7000000e-08  1.538042e-17  0.000000e+00  2.942378e-01 
  4.8000000e-08  1.579815e-17  0.000000e+00  3.004512e-01 
  4.9000000e-08  1.622092e-17  0.000000e+00  3.066616e-01 
  5.0000000e-08  1.664882e-17  0.000000e+00  3.128689e-01 
  5.1000000e-08  1.708194e-17  0.000000e+00  3.190732e-01 
  5.2000000e-08  1.752037e-17  0.000000e+00  3.252743e-01 
  5.3000000e-08  1.796420e-17  0.000000e+00  3.314722e-01 
  5.4000000e-08  1.841352e-17  0.000000e+00  3.376669e-01 
  5.5000000e-08  1.886843e-17  0.000000e+00  3.438582e-01 
  5.6000000e-08  1.932902e-17  0.000000e+00  3.500461e-01 
  5.7000000e-08  1.979538e-17  0.000000e+00  3.562306e-01 
  5.8000000e-08  2.026760e-17  0.000000e+00  3.624115e-01 
  5.9000000e-08  2.074578e-17  0.000000e+00  3.685889e-01 
  6.0000000e-08  2.123001e-17  0.000000e+00  3.747626e-01 
  6.1000000e-08  2.172039e-17  0.000000e+00  3.809326e-01 
  6.2000000e-08  2.221701e-17  0.000000e+00  3.870989e-01 
  6.3000000e-08  2.271997e-17  0.000000e+00  3.932614e-01 
  6.4000000e-08  2.322935e-17  0.000000e+00  3.994199e-01 
  6.5000000e-08  2.374526e-17  0.000000e+00  4.055746e-01 
  6.6000000e-08  2.426778e-17  0.000000e+00  4.117252e-01 
  6.7000000e-08  2.479702e-17  0.000000e+00  4.178718e-01 
  6.8000000e-08  2.533305e-17  0.000000e+00  4.240142e-01 
  6.9000000e-08  2.587599e-17  0.000000e+00  4.301524e-01 
  7.0000000e-08  2.642591e-17  0.000000e+00  4.362865e-01 
  7.1000000e-08  2.698291e-17  0.000000e+00  4.424162e-01 
  7.2000000e-08  2.754708e-17  0.000000e+00  4.485415e-01 
  7.3000000e-08  2.811851e-17  0.000000e+00  4.546624e-01 
  7.4000000e-08  2.869729e-17  0.000000e+00  4.607788e-01 
  7.5000000e-08  2.928351e-17  0.000000e+00  4.668907e-01 
  7.6000000e-08  2.987725e-17  0.000000e+00  4.729980e-01 
  7.7000000e-08  3.047860e-17  0.000000e+00  4.791006e-01 
  7.8000000e-08  3.108764e-17  0.000000e+00  4.851984e-01 
  7.9000000e-08  3.170446e-17  0.000000e+00  4.912915e-01 
  8.0000000e-08  3.232914e-17  0.000000e+00  4.973797e-01 
  8.1000000e-08  3.296175e-17  0.000000e+00  5.034631e-01 
  8.2000000e-08  3.360238e-17  0.000000e+00  5.095414e-01 
  8.3000000e-08  3.425109e-17  0.000000e+00  5.156147e-01 
  8.4000000e-08  3.490797e-17  0.000000e+00  5.216830e-01 
  8.5000000e-08  3.557308e-17  0.000000e+00  5.277461e-01 
  8.6000000e-08  3.624649e-17  0.000000e+00  5.338039e-01 
  8.7000000e-08  3.692826e-17  0.000000e+00  5.398565e-01 
  8.8000000e-08  3.761847e-17  0.000000e+00  5.459038e-01 
  8.9000000e-08  3.831717e-17  0.000000e+00  5.519457e-01 
  9.0000000e-08  3.902441e-17  0.000000e+00  5.579822e-01 
  9.1000000e-08  3.974026e-17  0.000000e+00  5.640131e-01 
  9.2000000e-08  4.046476e-17  0.000000e+00  5.700385e-01 
  9.3000000e-08  4.119796e-17  0.000000e+00  5.760582e-01 
  9.4000000e-08  4.193991e-17  0.000000e+00  5.820723e-01 
  9.5000000e-08  4.269064e-17  0.000000e+00  5.880806e-01 
  9.6000000e-08  4.345020e-17  0.000000e+00  5.940831e-01 
  9.7000000e-08  4.421861e-17  0.000000e+00  6.000798e-01 
  9.8000000e-08  4.499591e-17  0.000000e+00  6.060705e-01 
  9.9000000e-08  4.578211e-17  0.000000e+00  6.120552e-01 
  1.0000000e-07  4.657724e-17  0.000000e+00  6.180339e-01 
  1.0100000e-07  4.738132e-17  0.000000e+00  6.240065e-01 
  1.0200000e-07  4.819435e-17  0.000000e+00  6.299730e-01 
  1.0300000e-07  4.901635e-17  0.000000e+00  6.359332e-01 
  1.0400000e-07  4.984731e-17  0.000000e+00  6.418872e-01 
  1.0500000e-07  5.068722e-17  0.000000e+00  6.478348e-01 
  1.0600000e-07  5.153609e-17  0.000000e+00  6.537760e-01 
  1.0700000e-07  5.239389e-17  0.000000e+00  6.597108e-01 
  1.0800000e-07  5.326061e-17  0.000000e+00  6.656390e-01 
  1.0900000e-07  5.413623e-17  0.000000e+00  6.715607e-01 
  1.1000000e-07  5.502070e-17  0.000000e+00  6.774758e-01 
  1.1100000e-07  5.591400e-17  0.000000e+00  6.833841e-01 
  1.1200000e-07  5.681608e-17  0.000000e+00  6.892858e-01 
  1.1300000e-07  5.772689e-17  0.000000e+00  6.951806e-01 
  1.1400000e-07  5.864639e-17  0.000000e+00  7.010686e-01 
  1.1500000e-07  5.957451e-17  0.000000e+00  7.069496e-01 
  1.1600000e-07  6.051118e-17  0.000000e+00  7.128237e-01 
  1.1700000e-07  6.145634e-17  0.000000e+00  7.186907e-01 
  1.1800000e-07  6.240990e-17  0.000000e+00  7.245506e-01 
  1.1900000e-07  6.337179e-17  0.000000e+00  7.304034e-01 
  1.2000000e-07  6.434190e-17  0.000000e+00  7.362490e-01 
  1.2100000e-07  6.532015e-17  0.000000e+00  7.420873e-01 
  1.2200000e-07  6.630643e-17  0.000000e+00  7.479183e-01 
  1.2300000e-07  6.730062e-17  0.000000e+00  7.537419e-01 
  1.2400000e-07  6.830263e-17  0.000000e+00  7.595581e-01 
  1.2500000e-07  6.931231e-17  0.000000e+00  7.653668e-01 
  1.2600000e-07  7.032955e-17  0.000000e+00  7.711679e-01 
  1.2700000e-07  7.135421e-17  0.000000e+00  7.769614e-01 
  1.2800000e-07  7.238614e-17  0.000000e+00  7.827472e-01 
  1.2900000e-07  7.342521e-17  0.000000e+00  7.885253e-01 
  1.3000000e-07  7.447126e-17  0.000000e+00  7.942957e-01 
  1.3100000e-07  7.552412e-17  0.000000e+00  8.000582e-01 
  1.3200000e-07  7.658364e-17  0.000000e+00  8.058128e-01 
  1.3300000e-07  7.764965e-17  0.000000e+00  8.115594e-01 
  1.3400000e-07  7.872196e-17  0.000000e+00  8.172980e-01 
  1.3500000e-07  7.980039e-17  0.000000e+00  8.230286e-01 
  1.3600000e-07  8.088477e-17  0.000000e+00  8.287510e-01 
  1.3700000e-07  8.197489e-17  0.000000e+00  8.344653e-01 
  1.3800000e-07  8.307056e-17  0.000000e+00  8.401713e-01 
  1.3900000e-07  8.417157e-17  0.000000e+00  8.458691e-01 
  1.4000000e-07  8.527772e-17  0.000000e+00  8.515585e-01 
  1.4100000e-07  8.638879e-17  0.000000e+00  8.572394e-01 
  1.4200000e-07  8.750457e-17  0.000000e+00  8.629120e-01 
  1.4300000e-07  8.862484e-17  0.000000e+00  8.685760e-01 
  1.4400000e-07  8.974936e-17  0.000000e+00  8.742314e-01 
  1.4500000e-07  9.087792e-17  0.000000e+00  8.798782e-01 
  1.4600000e-07  9.201028e-17  0.000000e+00  8.855163e-01 
  1.4700000e-07  9.314620e-17  0.000000e+00  8.911457e-01 
  1.4800000e-07  9.428544e-17  0.000000e+00  8.967663e-01 
  1.4900000e-07  9.542777e-17  0.000000e+00  9.023780e-01 
  1.5000000e-07  9.657292e-17  0.000000e+00  9.079809e-01 
  1.5100000e-07  9.772067e-17  0.000000e+00  9.135747e-01 
  1.5200000e-07  9.887076e-17  0.000000e+00  9.191596e-01 
  1.5300000e-07  1.000229e-16  0.000000e+00  9.247354e-01 
  1.5400000e-07  1.011769e-16  0.000000e+00  9.303020e-01 
  1.5500000e-07  1.023325e-16  0.000000e+00  9.358595e-01 
  1.5600000e-07  1.034894e-16  0.000000e+00  9.414077e-01 
  1.5700000e-07  1.046474e-16  0.000000e+00  9.469467e-01 
  1.5800000e-07  1.058062e-16  0.000000e+00  9.524763e-01 
  1.5900000e-07  1.069655e-16  0.000000e+00  9.579965e-01 
  1.6000000e-07  1.081251e-16  0.000000e+00  9.635072e-01 
  1.6100000e-07  1.092848e-16  0.000000e+00  9.690084e-01 
  1.6200000e-07  1.104442e-16  0.000000e+00  9.745001e-01 
  1.6300000e-07  1.116031e-16  0.000000e+00  9.799821e-01 
  1.6400000e-07  1.127614e-16  0.000000e+00  9.854545e-01 
  1.6500000e-07  1.139186e-16  0.000000e+00  9.909172e-01 
  1.6600000e-07  1.150746e-16  0.000000e+00  9.963700e-01 
  1.6700000e-07  1.162291e-16  0.000000e+00  1.001813e+00 
  1.6800000e-07  1.173818e-16  0.000000e+00  1.007246e+00 
  1.6900000e-07  1.185325e-16  0.000000e+00  1.012669e+00 
  1.7000000e-07  1.196811e-16  0.000000e+00  1.018083e+00 
  1.7100000e-07  1.208271e-16  0.000000e+00  1.023486e+00 
  1.7200000e-07  1.219704e-16  0.000000e+00  1.028879e+00 
  1.7300000e-07  1.231108e-16  0.000000e+00  1.034262e+00 
  1.7400000e-07  1.242480e-16  0.000000e+00  1.039635e+00 
  1.7500000e-07  1.253818e-16  0.000000e+00  1.044997e+00 
  1.7600000e-07  1.265119e-16  0.000000e+00  1.050349e+00 
  1.7700000e-07  1.276382e-16  0.000000e+00  1.055691e+00 
  1.7800000e-07  1.287604e-16  0.000000e+00  1.061022e+00 
  1.7900000e-07  1.298783e-16  0.000000e+00  1.066343e+00 
  1.8000000e-07  1.309917e-16  0.000000e+00  1.071653e+00 
  1.8100000e-07  1.321004e-16  0.000000e+00  1.076953e+00 
  1.8200000e-07  1.332043e-16  0.000000e+00  1.082242e+00 
  1.8300000e-07  1.343030e-16  0.000000e+00  1.087521e+00 
  1.8400000e-07  1.353964e-16  0.000000e+00  1.092788e+00 
  1.8500000e-07  1.364844e-16  0.000000e+00  1.098045e+00 
  1.8600000e-07  1.375667e-16  0.000000e+00  1.103292e+00 
  1.8700000e-07  1.386432e-16  0.000000e+00  1.108527e+00 
  1.8800000e-07  1.397138e-16  0.000000e+00  1.113751e+00 
  1.8900000e-07  1.407781e-16  0.000000e+00  1.118964e+00 
  1.9000000e-07  1.418362e-16  0.000000e+00  1.124167e+00 
  1.9100000e-07  1.428878e-16  0.000000e+00  1.129358e+00 
  1.9200000e-07  1.439328e-16  0.000000e+00  1.134538e+00 
  1.9300000e-07  1.449711e-16  0.000000e+00  1.139706e+00 
  1.9400000e-07  1.460025e-16  0.000000e+00  1.144864e+00 
  1.9500000e-07  1.470268e-16  0.000000e+00  1.150010e+00 
  1.9600000e-07  1.480441e-16  0.000000e+00  1.155145e+00 
  1.9700000e-07  1.490541e-16  0.000000e+00  1.160269e+00 
  1.9800000e-07  1.500567e-16  0.000000e+00  1.165381e+00 
  1.9900000e-07  1.510519e-16  0.000000e+00  1.170481e+00 
  2.0000000e-07  1.520394e-16  0.000000e+00  1.175570e+00 
  2.0100000e-07  1.530194e-16  0.000000e+00  1.180648e+00 
  2.0200000e-07  1.539915e-16  0.000000e+00  1.185713e+00 
  2.0300000e-07  1.549559e-16  0.000000e+00  1.190767e+00 
  2.0400000e-07  1.559123e-16  0.000000e+00  1.195810e+00 
  2.0500000e-07  1.568607e-16  0.000000e+00  1.200840e+00 
  2.0600000e-07  1.578011e-16  0.000000e+00  1.205859e+00 
  2.0700000e-07  1.587334e-16  0.000000e+00  1.210866e+00 
  2.0800000e-07  1.596575e-16  0.000000e+00  1.215860e+00 
  2.0900000e-07  1.605733e-16  0.000000e+00  1.220843e+00 
  2.1000000e-07  1.614809e-16  0.000000e+00  1.225814e+00 
  2.1100000e-07  1.623802e-16  0.000000e+00  1.230772e+00 
  2.1200000e-07  1.632711e-16  0.000000e+00  1.235719e+00 
  2.1300000e-07  1.641536e-16  0.000000e+00  1.240653e+00 
  2.1400000e-07  1.650277e-16  0.000000e+00  1.245575e+00 
  2.1500000e-07  1.658934e-16  0.000000e+00  1.250485e+00 
  2.1600000e-07  1.667507e-16  0.000000e+00  1.255382e+00 
  2.1700000e-07  1.675994e-16  0.000000e+00  1.260267e+00 
  2.1800000e-07  1.684397e-16  0.000000e+00  1.265140e+00 
  2.1900000e-07  1.692715e-16  0.000000e+00  1.270000e+00 
  2.2000000e-07  1.700948e-16  0.000000e+00  1.274848e+00 
  2.2100000e-07  1.709096e-16  0.000000e+00  1.279683e+00 
  2.2200000e-07  1.717160e-16  0.000000e+00  1.284505e+00 
  2.2300000e-07  1.725139e-16  0.000000e+00  1.289315e+00 
  2.2400000e-07  1.733033e-16  0.000000e+00  1.294112e+00 
  2.2500000e-07  1.740843e-16  0.000000e+00  1.298896e+00 
  2.2600000e-07  1.748569e-16  0.000000e+00  1.303667e+00 
  2.2700000e-07  1.756211e-16  0.000000e+00  1.308426e+00 
  2.2800000e-07  1.763769e-16  0.000000e+00  1.313171e+00 
  2.2900000e-07  1.771244e-16  0.000000e+00  1.317904e+00 
  2.3000000e-07  1.778635e-16  0.000000e+00  1.322623e+00 
  2.3100000e-07  1.785944e-16  0.000000e+00  1.327330e+00 
  2.3200000e-07  1.793171e-16  0.000000e+00  1.332023e+00 
  2.3300000e-07  1.800316e-16  0.000000e+00  1.336704e+00 
  2.3400000e-07  1.807379e-16  0.000000e+00  1.341371e+00 
  2.3500000e-07  1.814361e-16  0.000000e+00  1.346025e+00 
  2.3600000e-07  1.821263e-16  0.000000e+00  1.350665e+00 
  2.3700000e-07  1.828085e-16  0.000000e+00  1.355293e+00 
  2.3800000e-07  1.834827e-16  0.000000e+00  1.359906e+00 
  2.3900000e-07  1.841490e-16  0.000000e+00  1.364507e+00 
  2.4000000e-07  1.848074e-16  0.000000e+00  1.369094e+00 
  2.4100000e-07  1.854581e-16  0.000000e+00  1.373667e+00 
  2.4200000e-07  1.861010e-16  0.000000e+00  1.378227e+00 
  2.4300000e-07  1.867362e-16  0.000000e+00  1.382774e+00 
  2.4400000e-07  1.873639e-16  0.000000e+00  1.387306e+00 
  2.4500000e-07  1.879840e-16  0.000000e+00  1.391825e+00 
  2.4600000e-07  1.885965e-16  0.000000e+00  1.396330e+00 
  2.4700000e-07  1.892017e-16  0.000000e+00  1.400822e+00 
  2.4800000e-07  1.897995e-16  0.000000e+00  1.405300e+00 
  2.4900000e-07  1.903901e-16  0.000000e+00  1.409763e+00 
  2.5000000e-07  1.909734e-16  0.000000e+00  1.414213e+00 
  2.5100000e-07  1.915495e-16  0.000000e+00  1.418649e+00 
  2.5200000e-07  1.921186e-16  0.000000e+00  1.423071e+00 
  2.5300000e-07  1.926806e-16  0.000000e+00  1.427479e+00 
  2.5400000e-07  1.932357e-16  0.000000e+00  1.431873e+00 
  2.5500000e-07  1.937839e-16  0.000000e+00  1.436252e+00 
  2.5600000e-07  1.943254e-16  0.000000e+00  1.440618e+00 
  2.5700000e-07  1.948600e-16  0.000000e+00  1.444969e+00 
  2.5800000e-07  1.953881e-16  0.000000e+00  1.449306e+00 
  2.5900000e-07  1.959095e-16  0.000000e+00  1.453629e+00 
  2.6000000e-07  1.964244e-16  0.000000e+00  1.457937e+00 
  2.6100000e-07  1.969329e-16  0.000000e+00  1.462231e+00 
  2.6200000e-07  1.974351e-16  0.000000e+00  1.466510e+00 
  2.6300000e-07  1.979309e-16  0.000000e+00  1.470775e+00 
  2.6400000e-07  1.984205e-16  0.000000e+00  1.475026e+00 
  2.6500000e-07  1.989039e-16  0.000000e+00  1.479262e+00 
  2.6600000e-07  1.993813e-16  0.000000e+00  1.483483e+00 
  2.6700000e-07  1.998526e-16  0.000000e+00  1.487690e+00 
  2.6800000e-07  2.003181e-16  0.000000e+00  1.491882e+00 
  2.6900000e-07  2.007776e-16  0.000000e+00  1.496059e+00 
  2.7000000e-07  2.012314e-16  0.000000e+00  1.500222e+00 
  2.7100000e-07  2.016794e-16  0.000000e+00  1.504369e+00 
  2.7200000e-07  2.021219e-16  0.000000e+00  1.508502e+00 
  2.7300000e-07  2.025587e-16  0.000000e+00  1.512620e+00 
  2.7400000e-07  2.029900e-16  0.000000e+00  1.516723e+00 
  2.7500000e-07  2.034159e-16  0.000000e+00  1.520812e+00 
  2.7600000e-07  2.038364e-16  0.000000e+00  1.524885e+00 
  2.7700000e-07  2.042516e-16  0.000000e+00  1.528943e+00 
  2.7800000e-07  2.046616e-16  0.000000e+00  1.532986e+00 
  2.7900000e-07  2.050665e-16  0.000000e+00  1.537013e+00 
  2.8000000e-07  2.054662e-16  0.000000e+00  1.541026e+00 
  2.8100000e-07  2.058609e-16  0.000000e+00  1.545023e+00 
  2.8200000e-07  2.062507e-16  0.000000e+00  1.549006e+00 
