 ****** PrimeSim HSPICE -- V-2023.12-SP2 linux64 (May 28 2024 8970365) ******
  Copyright (c) 1986 - 2025 by Synopsys, Inc. All Rights Reserved.
  This software and the associated documentation are proprietary
  to Synopsys, Inc. This software may only be used in accordance
  with the terms and conditions of a written license agreement with
  Synopsys, Inc. All other use, reproduction, or distribution of
  this software is strictly prohibited.
  Input File: ferro_cap_I.sp                                                    
  Command line options: /home/user_r/synopsys/hspice/V-2023.12-SP2/hspice/linux64/hspice ferro_cap_I.sp -o output
  Start time: Thu Aug  7 00:40:11 2025
 lic:  
 lic: FLEXlm: SDK_12.11.9.5 
 lic: USER:   user_r               HOSTNAME: mario 
 lic: HOSTID: ffffffff91736e9d     PID:      12438 
 lic: Using FLEXlm license file: 
 lic: 27020@115.145.157.110 
 lic: Checkout 1 hspice 
 lic: License/Maintenance for hspice will expire on 24-mar-2026/2024.09 
 lic: 1(in_use)/5(total) FLOATING license(s) on SERVER 27020@115.145.157.110 
 lic:   
 **info** *pvaI* current limit stacksize=8388608, set new limit stacksize=62914560

 Loading pVA library output/ferro_cap_I.pvadir/pvaRTL_linux64.so...
1****** PrimeSim HSPICE -- V-2023.12-SP2 linux64 (May 28 2024 8970365) ******
 ******  
 fecap_test

 ****** circuit name directory
 circuit number to circuit name directory
   number circuitname                     definition         multiplier
        0 main circuit
        1 xc1.                            fecapx(va)         1.00 
 ******  
 fecap_test

 ****** mos   model parameters tnom=  25.000 temp=  25.000 ******
 Model file: ./headers/300K_N.txt
 Model line:            1
 Model Name: mosmod1  
 BSIM4 Model (Level 54)
    MOBMOD = 1
    BINUNIT = 2
    PARAMCHK = 1
    CAPMOD = 2
    DIOMOD = 1
    RDSMOD = 0
    TRNQSMOD = 0
    ACNQSMOD = 0
    RBODYMOD = 0
    RGATEMOD = 0
    PERMOD = 1
    GEOMOD = 0
    RGEOMOD = 0
    FNOIMOD = 1
    TNOIMOD = 0
    IGCMOD = 0
    IGBMOD = 0
    STIMOD = 1
    VBFWDMOD = 0
    VERSION =    4.8 
    TOXREF =  3e-09 
    TOXE =  3e-09 
    TOXP =  3e-09 
    TOXM =  3e-09 
    DTOX =      0 
    EPSROX =     20 
    CDSC = 5.284e-06 
    CDSCB =      0 
    CDSCD = -0.006457 
    CIT =      0 
    NFACTOR = 0.01698 
    XJ = 1.5e-07 
    VSAT = 1.932e+05 
    A0 =  16.29 
    AGS =      0 
    A1 =      0 
    A2 =      1 
    AT = 3.3e+04 
    KETA = -0.047 
    NSUB =  6e+16 
    NDEP = 1.7e+17 
    NSD =  1e+20 
    NGATE =      0 
    GAMMA1 =      0 
    GAMMA2 =      0 
    VBX =      0 
    VBM =     -3 
    XT = 1.55e-07 
    K1 = 0.1233 
    KT1 =  -0.11 
    KT1L =      0 
    KT2 =  0.022 
    K2 = -0.018 
    K3 =      2 
    K3B =      0 
    LPE0 = 1.74e-07 
    LPEB =      0 
    DVTP0 =      0 
    DVTP1 =  0.001 
    W0 = 2.5e-06 
    DVT0 =  2.268 
    DVT1 =   0.53 
    DVT2 = -0.032 
    DVT0W =      0 
    DVT1W = 5.3e+06 
    DVT2W = -0.032 
    DROUT =   0.56 
    DSUB = 0.6081 
    VTH0 =  1.197 
    EU =   1.67 
    UA = 1.282e-12 
    UA1 =  1e-09 
    UB =  1e-19 
    UB1 = -1e-18 
    UC = -0.0465 
    UC1 =  0.056 
    U0 = 0.0542 
    UTE =   -1.5 
    VOFF = -0.007834 
    VOFFL =      0 
    MINV = 1.262e-05 
    FPROUT =      0 
    PDITS =  0.001 
    PDITSD =      0 
    PDITSL =      0 
    DELTA =   0.01 
    RDSW =  49.55 
    RDSWMIN =      0 
    RDWMIN =      0 
    RSWMIN =      0 
    RDW =    100 
    RSW =    100 
    PRWG =      1 
    PRWB =      0 
    PRT =      0 
    ETA0 = 0.03034 
    ETAB =  -0.07 
    PCLM =    1.3 
    PDIBLC1 =   0.39 
    PDIBLC2 = 0.0086 
    PDIBLCB =      0 
    PSCBE1 = 4.24e+08 
    PSCBE2 =  1e-05 
    PVAG =      0 
    WR =      1 
    DWG = -9.55e-08 
    DWB =      0 
    XW =      0 
    XWREF =      0 
    XL =      0 
    XLREF =      0 
    B0 =      0 
    B1 =      0 
    ALPHA0 =  1e-05 
    ALPHA1 =      0 
    AGIDL =      0 
    BGIDL = 2.3e+09 
    CGIDL =    0.5 
    PHIN =      0 
    EGIDL =    0.8 
    AIGC = 0.0136 
    BIGC = 0.00171 
    CIGC =  0.075 
    AIGSD = 0.0136 
    BIGSD = 0.00171 
    CIGSD =  0.075 
    AIGBACC = 0.0136 
    BIGBACC = 0.00171 
    CIGBACC =  0.075 
    AIGBINV = 0.0111 
    BIGBINV = 0.000949 
    CIGBINV =  0.006 
    NIGC =      1 
    NIGBINV =      3 
    NIGBACC =      1 
    NTOX =      1 
    EIGBINV =    1.1 
    PIGCD =      1 
    POXEDGE =      1 
    XRCRG1 =     12 
    TNOIA =    1.5 
    TNOIB =    3.5 
    NTNOI =      1 
    XRCRG2 =      1 
    BETA0 =     15 
    IJTHDFWD =    0.1 
    IJTHSFWD =    0.1 
    IJTHDREV =    0.1 
    IJTHSREV =    0.1 
    XJBVD =      1 
    XJBVS =      1 
    BVD =     10 
    BVS =     10 
    VFB =     -1 
    GBMIN =  1e-12 
    RBDB =     50 
    RBPB =     50 
    RBSB =     50 
    RBPS =     50 
    RBPD =     50 
    CGSL =      0 
    CGDL =      0 
    CKAPPAS =    0.6 
    CKAPPAD =    0.6 
    CF =      0 
    CLC =  1e-07 
    CLE =    0.6 
    DWC =      0 
    DLC = -6.851e-09 
    DLCIG =      0 
    DWJ =      0 
    VFBCV =     -1 
    ACDE = 0.001514 
    MOIN = 2.198e-09 
    NOFF =  30.55 
    VOFFCV = -0.4375 
    DMCG =      0 
    DMCI =      0 
    DMDG =      0 
    DMCGT =      0 
    XGW =      0 
    XGL =      0 
    RSHG =    0.1 
    NGCON =      1 
    TCJ =      0 
    TPB =      0 
    TCJSW =      0 
    TPBSW =      0 
    TCJSWG =      0 
    TPBSWG =      0 
    SK0 =      0 
    SK1 =      0 
    SK2 =      0 
    SL =  2e-06 
    SW =  2e-06 
    K =      0 
    TNOM =  300.1 
    CGSO =      0 
    CGDO =      0 
    CGBO = 3.926e-09 
    XPART =      0 
    RSH =      0 
    JSS = 0.0001 
    JSWS =      0 
    JSWGS =      0 
    PBS =      1 
    MJS =    0.5 
    PBSWS =      1 
    MJSWS =   0.33 
    CJS = 0.0005 
    CJSWS =  5e-10 
    NJS =      1 
    PBSWGS =      1 
    MJSWGS =   0.33 
    CJSWGS =  5e-10 
    XTIS =      3 
    JSD = 0.0001 
    JSWD =      0 
    JSWGD =      0 
    PBD =      1 
    MJD =    0.5 
    PBSWD =      1 
    MJSWD =   0.33 
    CJD = 0.0005 
    CJSWD =  5e-10 
    NJD =      1 
    PBSWGD =      1 
    MJSWGD =   0.33 
    CJSWGD =  5e-10 
    XTID =      3 
    LMLT =      1 
    WMLT =      1 
    LINT =      0 
    LL =      0 
    LLC =      0 
    LLN =      1 
    LW =      0 
    LWC =      0 
    LWN =      1 
    LWL =      0 
    LWLC =      0 
    LMIN =      0 
    LMAX =      1 
    WINT =      0 
    WL =      0 
    WLC =      0 
    WLN =      1 
    WW =      0 
    WWC =      0 
    WWN =      1 
    WWL =      0 
    WWLC =      0 
    WMIN =      0 
    WMAX =      1 
    NOIA = 6.25e+41 
    NOIB = 3.125e+26 
    NOIC =   8.75 
    EM = 4.1e+07 
    EF =      1 
    AF =      1 
    KF =      0 
    TRS =      0 
    TRD =      0 
    TEMPMOD  =      0 
    LAMBDA   =      0 
    VTL      = 6.998e+04 m/s
    LC       =      0 
    XN       =      3 
    LLAMBDA  =      0 
    LVTL     =      0 
    LXN      =      0 
    WLAMBDA  =      0 
    WVTL     =      0 
    WXN      =      0 
    PLAMBDA  =      0 
    PVTL     =      0 
    PXN      =      0 
    RNOIA    =  0.577 
    RNOIB    = 0.5164 
    SAREF(SA0) =  1e-06 m
    SBREF(SB0) =  1e-06 m
    WLOD     =  2e-06 m
    KU0      =  4e-06 1/m
    KVSAT    =    0.2 
    KVTH0    = -2e-08 m
    TKU0     =      0 
    LLODKU0  =    1.1 
    WLODKU0  =    1.1 
    LLODVTH  =      1 
    WLODVTH  =      1 
    LKU0     =  1e-06 
    WKU0     =  1e-06 
    PKU0     =      0 
    LKVTH0   = 1.1e-06 
    WKVTH0   = 1.1e-06 
    PKVTH0   =      0 
    STK2     =      0 
    LODK2    =      1 
    STETA0   =      0 
    LODETA0  =      1 
    LXRCRG1  =      0 
    WXRCRG1  =      0 
    PXRCRG1  =      0 
    LXRCRG2  =      0 
    WXRCRG2  =      0 
    PXRCRG2  =      0 
     *** UCB's BSIM4.4.0 new diode model is activated. ***
    *** UCB's Diode Model Parameters ***
    JTSS         =      0 
    JTSSWS       =      0 
    JTSSWGS      =      0 
    JTSD         =      0 
    JTSSWD       =      0 
    JTSSWGD      =      0 
    NJTS         =     20 
    NJTSSW       =     20 
    NJTSSWG      =     20 
    XTSS         =   0.02 
    XTSSWS       =   0.02 
    XTSSWGS      =   0.02 
    XTSD         =   0.02 
    XTSSWD       =   0.02 
    XTSSWGD      =   0.02 
    TNJTS        =      0 
    TNJTSSW      =      0 
    TNJTSSWG     =      0 
    VFBSDOFF     =      0 
    LVFBSDOFF    =      0 
    WVFBSDOFF    =      0 
    PVFBSDOFF    =      0 
    LINTNOI      =      0 
    VTSS         =     10 
    VTSD         =     10 
    VTSSWS       =     10 
    VTSSWD       =     10 
    VTSSWGS      =     10 
    VTSSWGD      =     10 
    TTDIOMOD     =      1 
     *** UCB's BSIM4.5.0 new model is activated. ***
    UD         =      0 
    UD1        =      0 
    UP         =      0 
    LP         =  1e-08 
    TVOFF      =      0 
    TVFBSDOFF  =      0 
    RBPS0      =     50 
    RBPSL      =      0 
    RBPSW      =      0 
    RBPSNF     =      0 
    RBPD0      =     50 
    RBPDL      =      0 
    RBPDW      =      0 
    RBPDNF     =      0 
    RBPBX0     =    100 
    RBPBXL     =      0 
    RBPBXW     =      0 
    RBPBXNF    =      0 
    RBPBY0     =    100 
    RBPBYL     =      0 
    RBPBYW     =      0 
    RBPBYNF    =      0 
    RBSBX0     =    100 
    RBSBY0     =    100 
    RBDBX0     =    100 
    RBDBY0     =    100 
    RBSDBXL    =      0 
    RBSDBXW    =      0 
    RBSDBXNF   =      0 
    RBSDBYL    =      0 
    RBSDBYW    =      0 
    RBSDBYNF   =      0 
    LUD        =      0 
    LUD1       =      0 
    LUP        =      0 
    LLP        =      0 
    LTVOFF     =      0 
    LTVFBSDOFF =      0 
    WUD        =      0 
    WUD1       =      0 
    WUP        =      0 
    WLP        =      0 
    WTVOFF     =      0 
    WTVFBSDOFF =      0 
    PUD        =      0 
    PUD1       =      0 
    PUP        =      0 
    PLP        =      0 
    PTVOFF     =      0 
    PTVFBSDOFF =      0 
    WEB        =      0 
    WEC        =      0 
    KVTH0WE    =      0 
    K2WE       =      0 
    KU0WE      =      0 
    SCREF      =  1e-06 
    WPEMOD     =      0 
    LKVTH0WE   =      0 
    LK2WE      =      0 
    LKU0WE     =      0 
    WKVTH0WE   =      0 
    WK2WE      =      0 
    WKU0WE     =      0 
    PKVTH0WE   =      0 
    PK2WE      =      0 
    PKU0WE     =      0 
     *** UCB's BSIM4.6.0 new model is activated. ***
    AGISL     =      0 
    BGISL     = 2.3e+09 
    CGISL     =    0.5 
    EGISL     =    0.8 
    AIGS      = 0.0136 
    BIGS      = 0.00171 
    CIGS      =  0.075 
    AIGD      = 0.0136 
    BIGD      = 0.00171 
    CIGD      =  0.075 
    NJTSD     =     20 
    NJTSSWD   =     20 
    NJTSSWGD  =     20 
    TNJTSD    =      0 
    TNJTSSWD  =      0 
    TNJTSSWGD =      0 
    DLCIGD    =      0 
    LAGISL    =      0 
    LBGISL    =      0 
    LCGISL    =      0 
    LEGISL    =      0 
    LAIGS     =      0 
    LBIGS     =      0 
    LCIGS     =      0 
    LAIGD     =      0 
    LBIGD     =      0 
    LCIGD     =      0 
    WAGISL    =      0 
    WBGISL    =      0 
    WCGISL    =      0 
    WEGISL    =      0 
    WAIGS     =      0 
    WBIGS     =      0 
    WCIGS     =      0 
    WAIGD     =      0 
    WBIGD     =      0 
    WCIGD     =      0 
    PAGISL    =      0 
    PBGISL    =      0 
    PCGISL    =      0 
    PEGISL    =      0 
    PAIGS     =      0 
    PBIGS     =      0 
    PCIGS     =      0 
    PAIGD     =      0 
    PBIGD     =      0 
    PCIGD     =      0 
     *** UCB's BSIM4.6.1 new model is activated. ***
    CVCHARGEMOD     = 0
    MTRLMOD     = 1
    EOT     = 5.85e-10 
    VDDEOT     =    1.5 
    ADOS     =      1 
    BDOS     =      1 
    PHIG     =   4.05 
    EPSRGATE     =   11.7 
    EASUB     =   4.05 
    EPSRSUB     =   11.7 
    NI0SUB     = 1.45e+10 
    BG0SUB     =   1.16 
    TBGASUB     = 0.000702 
    TBGBSUB     =   1108 
    MINVCV     =      0 
    VOFFCV1     =      0 
    LMINVCV     =      0 
    WMINVCV     =      0 
    PMINVCV     =      0 
    TEMPEOT     =  300.1 
    LEFFEOT     =      1 
    WEFFEOT     =     10 
    UCS         =   1.67 
    UCSTE       = -0.004775 
    LUCS        =      0 
    LUCSTE      =      0 
    WUCS        =      0 
    WUCSTE      =      0 
    PUCS        =      0 
    PUCSTE      =      0 
    JTWEFF      =      0 
     *** UCB's BSIM4.6.6 new model is activated. ***
    GIDLMOD     = 0
    DVTP2       =      0 
    DVTP3       =      0 
    DVTP4       =      0 
    DVTP5       =      0 
    TNFACTOR    =      0 
    TETA0       =      0 
    TVOFFCV     =      0 
    FGIDL       =      0 
    KGIDL       =      0 
    RGIDL       =      1 
    FGISL       =      0 
    KGISL       =      0 
    RGISL       =      1 
    TNOIC       =      0 
    RNOIC       =  0.395 
    LDVTP2      =      0 
    LDVTP3      =      0 
    LDVTP4      =      0 
    LDVTP5      =      0 
    LTNFACTOR   =      0 
    LTETA0      =      0 
    LTVOFFCV    =      0 
    LFGIDL      =      0 
    LKGIDL      =      0 
    LRGIDL      =      0 
    LFGISL      =      0 
    LKGISL      =      0 
    LRGISL      =      0 
    WDVTP2      =      0 
    WDVTP3      =      0 
    WDVTP4      =      0 
    WDVTP5      =      0 
    WTNFACTOR   =      0 
    WTETA0      =      0 
    WTVOFFCV    =      0 
    WFGIDL      =      0 
    WKGIDL      =      0 
    WRGIDL      =      0 
    WFGISL      =      0 
    WKGISL      =      0 
    WRGISL      =      0 
    PDVTP2      =      0 
    PDVTP3      =      0 
    PDVTP4      =      0 
    PDVTP5      =      0 
    PTNFACTOR   =      0 
    PTETA0      =      0 
    PTVOFFCV    =      0 
    PFGIDL      =      0 
    PKGIDL      =      0 
    PRGIDL      =      0 
    PFGISL      =      0 
    PKGISL      =      0 
    PRGISL      =      0 
    MTRLCOMPATMOD      = 0
  **info** (ferro_cap_I.sp:16) DC voltage reset to initial transient source value in source 0:v2. new dc=0.0000D+00
  **warning** (mosmod1:mn1 (ferro_cap_I.sp:11)) Warning: xt is ignored since k1 or k2 is given.
 **info** *pvaI* Creating VA module (fecapx) for instance XC1

 **info** *pvaI*        termCount=7 diwSize=38 probeSize=6080 Qsize=5 Isize=6

 **warning**: parameter VCLTEMP for instance XC1 does not exist in verilog-A module

 **warning**: parameter VCRTEMP for instance XC1 does not exist in verilog-A module

  
      
 *****************************************************************
 ******  option summary
 ******
 runlvl  = 3         bypass  = 2.0000    
  Opening plot unit= 15
 file=output/ferro_cap_I.pa0

 Begin of pVA simulation on Thu Aug  7 00:40:11 2025	


 **info** dc convergence successful at Newton-Raphson method 
 ******  
 fecap_test

 ****** operating point information tnom=  25.000 temp=  25.000 ******
 ****** operating point status is all       simulation time is     0.     
    node    =voltage      node    =voltage      node    =voltage

 +0:vd      = 800.0000m 0:vf      =   0.      0:vg      =   0.     


 **** voltage sources

 subckt                        
 element  0:v1       0:v2      
  volts    800.0000m    0.     
  current   -1.6522n    0.     
  power      1.3217n    0.     

     total voltage source power dissipation=    1.3217n       watts




 **** mosfets


 subckt             
 element  0:mn1     
 model    0:mosmod1 
 region   Subth     
  id         1.6510n
  ibs        0.     
  ibd     -800.0000f
  vgs        0.     
  vds      800.0000m
  vbs        0.     
  vth       93.9023m
  vdsat     37.3626m
  vod      -93.9023m
  beta      22.9671m
  gam eff  123.3000m
  gm        79.6869n
  gds        2.1110n
  gmb        0.     
  cdtot     85.7984a
  cgtot    113.8710a
  cstot    104.1933a
  cbtot    301.6586a
  cgs      2.170e-19
  cgd      2.174e-19



 

 instance name: XC1
   V_max  3.4
  V_rmax  0
  V_lmax  0
  QsTemp  0
      Qs  0.1
     Cfe  0
       v  0
       m  0.50625864
       b  0.049129968
    S_up  -2.1
   State  0
    S_dn  2.1
     Fup  -0.097045194
     Fdn  0.097045194
      dV  -0
     mVR  3.4
     mVL  -3.4
     mPR  0.099505475
     mPL  -0.099505475
 dirchange  0
       i  1
       j  0
  P_real  0
   V_pre  0
     tmp  0
     dVp  -0
  dirint  0
    flag  0
   flagI  5
  Fdh[0]  -0.099505475
  Fdh[1]  0.097045194
  Fdh[2]  0
  Fdh[3]  0
  Fdh[4]  0
  Fdh[5]  0
  Fdh[6]  0
  Fdh[7]  0
  Fdh[8]  0
  Fdh[9]  0
 Fdh[10]  0
 Fdh[11]  0
 Fdh[12]  0
 Fdh[13]  0
 Fdh[14]  0
 Fdh[15]  0
 Fdh[16]  0
 Fdh[17]  0
 Fdh[18]  0
 Fdh[19]  0
 Fdh[20]  0
 Fdh[21]  0
 Fdh[22]  0
 Fdh[23]  0
 Fdh[24]  0
 Fdh[25]  0
 Fdh[26]  0
 Fdh[27]  0
 Fdh[28]  0
 Fdh[29]  0
 Fdh[30]  0
 Fdh[31]  0
 Fdh[32]  0
 Fdh[33]  0
 Fdh[34]  0
 Fdh[35]  0
 Fdh[36]  0
 Fdh[37]  0
 Fdh[38]  0
 Fdh[39]  0
 Fdh[40]  0
 Fdh[41]  0
 Fdh[42]  0
 Fdh[43]  0
 Fdh[44]  0
 Fdh[45]  0
 Fdh[46]  0
 Fdh[47]  0
 Fdh[48]  0
 Fdh[49]  0
 Fdh[50]  0
 Fdh[51]  0
 Fdh[52]  0
 Fdh[53]  0
 Fdh[54]  0
 Fdh[55]  0
 Fdh[56]  0
 Fdh[57]  0
 Fdh[58]  0
 Fdh[59]  0
 Fdh[60]  0
 Fdh[61]  0
 Fdh[62]  0
 Fdh[63]  0
 Fdh[64]  0
 Fdh[65]  0
 Fdh[66]  0
 Fdh[67]  0
 Fdh[68]  0
 Fdh[69]  0
 Fdh[70]  0
 Fdh[71]  0
 Fdh[72]  0
 Fdh[73]  0
 Fdh[74]  0
 Fdh[75]  0
 Fdh[76]  0
 Fdh[77]  0
 Fdh[78]  0
 Fdh[79]  0
 Fdh[80]  0
 Fdh[81]  0
 Fdh[82]  0
 Fdh[83]  0
 Fdh[84]  0
 Fdh[85]  0
 Fdh[86]  0
 Fdh[87]  0
 Fdh[88]  0
 Fdh[89]  0
 Fdh[90]  0
 Fdh[91]  0
 Fdh[92]  0
 Fdh[93]  0
 Fdh[94]  0
 Fdh[95]  0
 Fdh[96]  0
 Fdh[97]  0
 Fdh[98]  0
 Fdh[99]  0
 Fdh[100]  0
 Fdh[101]  0
 Fdh[102]  0
 Fdh[103]  0
 Fdh[104]  0
 Fdh[105]  0
 Fdh[106]  0
 Fdh[107]  0
 Fdh[108]  0
 Fdh[109]  0
 Fdh[110]  0
 Fdh[111]  0
 Fdh[112]  0
 Fdh[113]  0
 Fdh[114]  0
 Fdh[115]  0
 Fdh[116]  0
 Fdh[117]  0
 Fdh[118]  0
 Fdh[119]  0
 Fdh[120]  0
 Fdh[121]  0
 Fdh[122]  0
 Fdh[123]  0
 Fdh[124]  0
 Fdh[125]  0
 Fdh[126]  0
 Fdh[127]  0
 Fdh[128]  0
 Fdh[129]  0
 Fdh[130]  0
 Fdh[131]  0
 Fdh[132]  0
 Fdh[133]  0
 Fdh[134]  0
 Fdh[135]  0
 Fdh[136]  0
 Fdh[137]  0
 Fdh[138]  0
 Fdh[139]  0
 Fdh[140]  0
 Fdh[141]  0
 Fdh[142]  0
 Fdh[143]  0
 Fdh[144]  0
 Fdh[145]  0
 Fdh[146]  0
 Fdh[147]  0
 Fdh[148]  0
 Fdh[149]  0
 Fdh[150]  0
 Fdh[151]  0
 Fdh[152]  0
 Fdh[153]  0
 Fdh[154]  0
 Fdh[155]  0
 Fdh[156]  0
 Fdh[157]  0
 Fdh[158]  0
 Fdh[159]  0
 Fdh[160]  0
 Fdh[161]  0
 Fdh[162]  0
 Fdh[163]  0
 Fdh[164]  0
 Fdh[165]  0
 Fdh[166]  0
 Fdh[167]  0
 Fdh[168]  0
 Fdh[169]  0
 Fdh[170]  0
 Fdh[171]  0
 Fdh[172]  0
 Fdh[173]  0
 Fdh[174]  0
 Fdh[175]  0
 Fdh[176]  0
 Fdh[177]  0
 Fdh[178]  0
 Fdh[179]  0
 Fdh[180]  0
 Fdh[181]  0
 Fdh[182]  0
 Fdh[183]  0
 Fdh[184]  0
 Fdh[185]  0
 Fdh[186]  0
 Fdh[187]  0
 Fdh[188]  0
 Fdh[189]  0
 Fdh[190]  0
 Fdh[191]  0
 Fdh[192]  0
 Fdh[193]  0
 Fdh[194]  0
 Fdh[195]  0
 Fdh[196]  0
 Fdh[197]  0
 Fdh[198]  0
 Fdh[199]  0
 Fdh[200]  0
 Fdh[201]  0
 Fdh[202]  0
 Fdh[203]  0
 Fdh[204]  0
 Fdh[205]  0
 Fdh[206]  0
 Fdh[207]  0
 Fdh[208]  0
 Fdh[209]  0
 Fdh[210]  0
 Fdh[211]  0
 Fdh[212]  0
 Fdh[213]  0
 Fdh[214]  0
 Fdh[215]  0
 Fdh[216]  0
 Fdh[217]  0
 Fdh[218]  0
 Fdh[219]  0
 Fdh[220]  0
 Fdh[221]  0
 Fdh[222]  0
 Fdh[223]  0
 Fdh[224]  0
 Fdh[225]  0
 Fdh[226]  0
 Fdh[227]  0
 Fdh[228]  0
 Fdh[229]  0
 Fdh[230]  0
 Fdh[231]  0
 Fdh[232]  0
 Fdh[233]  0
 Fdh[234]  0
 Fdh[235]  0
 Fdh[236]  0
 Fdh[237]  0
 Fdh[238]  0
 Fdh[239]  0
 Fdh[240]  0
 Fdh[241]  0
 Fdh[242]  0
 Fdh[243]  0
 Fdh[244]  0
 Fdh[245]  0
 Fdh[246]  0
 Fdh[247]  0
 Fdh[248]  0
 Fdh[249]  0
 Fdh[250]  0
 Fdh[251]  0
 Fdh[252]  0
 Fdh[253]  0
 Fdh[254]  0
 Fdh[255]  0
 Fdh[256]  0
 Fdh[257]  0
 Fdh[258]  0
 Fdh[259]  0
 Fdh[260]  0
 Fdh[261]  0
 Fdh[262]  0
 Fdh[263]  0
 Fdh[264]  0
 Fdh[265]  0
 Fdh[266]  0
 Fdh[267]  0
 Fdh[268]  0
 Fdh[269]  0
 Fdh[270]  0
 Fdh[271]  0
 Fdh[272]  0
 Fdh[273]  0
 Fdh[274]  0
 Fdh[275]  0
 Fdh[276]  0
 Fdh[277]  0
 Fdh[278]  0
 Fdh[279]  0
 Fdh[280]  0
 Fdh[281]  0
 Fdh[282]  0
 Fdh[283]  0
 Fdh[284]  0
 Fdh[285]  0
 Fdh[286]  0
 Fdh[287]  0
